T14D4 068:620.979   SEGGER J-Link V6.62a Log File
T14D4 068:621.958   DLL Compiled: Jan 31 2020 12:58:08
T14D4 068:621.964   Logging started @ 2020-03-03 07:33
T14D4 068:621.974 JLINK_SetWarnOutHandler(...)
T14D4 068:622.320 - 0.349ms
T14D4 068:622.542 JLINK_OpenEx(...)
T14D4 068:624.983   Firmware: J-Link OB-SAM3U128-V2-NordicSemi compiled Jul 24 2017 17:30:12
T14D4 068:626.700   Looking for J-Link GUI Server exe at: C:\Keil_v5\ARM\Segger\JLinkGUIServer.exe
T14D4 068:627.005   Looking for J-Link GUI Server exe at: C:\Program Files (x86)\SEGGER\JLink\JLinkGUIServer.exe
T14D4 068:627.123   Forking J-Link GUI Server: C:\Program Files (x86)\SEGGER\JLink\JLinkGUIServer.exe
T14D4 069:057.662   J-Link GUI Server info: "J-Link GUI server V6.62a "
T14D4 071:039.677   Hardware: V1.00
T14D4 071:039.722   S/N: 682235175
T14D4 071:039.738   OEM: SEGGER
T14D4 071:039.753   Feature(s): RDI, FlashBP, FlashDL, JFlash, GDB
T14D4 071:064.394   TELNET listener socket opened on port 19021
T14D4 071:064.691   WEBSRV Starting webserver
T14D4 071:064.814   WEBSRV Webserver running on local port 19080
T14D4 071:064.823 - 2442.283ms returns "O.K."
T14D4 071:064.843 JLINK_GetEmuCaps()
T14D4 071:064.848 - 0.007ms returns 0xB8EA5A33
T14D4 071:064.859 JLINK_TIF_GetAvailable(...)
T14D4 071:065.095 - 0.245ms
T14D4 071:065.114 JLINK_SetErrorOutHandler(...)
T14D4 071:065.119 - 0.007ms
T14D4 071:065.143 JLINK_ExecCommand("ProjectFile = "D:\office\workspace\Nordic\Tuya_ble_lock_sdk_nRF52832\nRF5_SDK_15.3.0_59ac345\examples\ble_peripheral\ble_app_uart\pca10040\s132\arm5_no_packs\JLinkSettings.ini"", ...). 
T14D4 071:163.186   Ref file found at: C:\Keil_v5\ARM\Segger\JLinkDevices.ref
T14D4 071:164.022   XML referenced by ref file: C:\Program Files (x86)\SEGGER\JLink\JLinkDevices.xml
T14D4 071:168.658   C:\Program Files (x86)\SEGGER\JLink\JLinkDevices.xml evaluated successfully.
T14D4 071:334.065 - 268.946ms returns 0x00
T14D4 071:336.087 JLINK_ExecCommand("Device = nRF52832_xxAA", ...). 
T14D4 071:338.480   Device "NRF52832_XXAA" selected.
T14D4 071:339.277 - 3.178ms returns 0x00
T14D4 071:339.293 JLINK_ExecCommand("DisableConnectionTimeout", ...). 
T14D4 071:339.304 - 0.005ms returns 0x01
T14D4 071:339.317 JLINK_GetHardwareVersion()
T14D4 071:339.322 - 0.007ms returns 0x2710
T14D4 071:339.340 JLINK_GetDLLVersion()  returns 66201
T14D4 071:339.553 JLINK_GetFirmwareString(...)
T14D4 071:339.560 - 0.008ms
T14D4 071:345.546 JLINK_GetDLLVersion()  returns 66201
T14D4 071:345.571 JLINK_GetCompileDateTime()
T14D4 071:345.576 - 0.007ms
T14D4 071:347.016 JLINK_GetFirmwareString(...)
T14D4 071:347.027 - 0.014ms
T14D4 071:348.496 JLINK_GetHardwareVersion()
T14D4 071:348.507 - 0.014ms returns 0x2710
T14D4 071:354.504 JLINK_TIF_Select(JLINKARM_TIF_SWD)
T14D4 071:355.118 - 0.621ms returns 0x00
T14D4 071:355.154 JLINK_SetSpeed(1000)
T14D4 071:355.292 - 0.141ms
T14D4 071:355.301 JLINK_GetId()
T14D4 071:357.022   InitTarget() start
T14D4 071:357.042    J-Link Script File: Executing InitTarget()
T14D4 071:361.688   InitTarget() end
T14D4 071:364.400   Found SW-DP with ID 0x2BA01477
T14D4 071:365.994   Old FW that does not support reading DPIDR via DAP jobs
T14D4 071:368.223   Unknown DP version. Assuming DPv0
T14D4 071:369.593   Scanning AP map to find all available APs
T14D4 071:372.027   AP[2]: Stopped AP scan as end of AP map has been reached
T14D4 071:373.351   AP[0]: AHB-AP (IDR: 0x24770011)
T14D4 071:374.644   AP[1]: JTAG-AP (IDR: 0x02880000)
T14D4 071:375.937   Iterating through AP map to find AHB-AP to use
T14D4 071:380.301   AP[0]: Core found
T14D4 071:382.697   AP[0]: AHB-AP ROM base: 0xE00FF000
T14D4 071:384.571   CPUID register: 0x410FC241. Implementer code: 0x41 (ARM)
T14D4 071:385.988   Found Cortex-M4 r0p1, Little endian.
T14D4 071:487.917    -- Max. mem block: 0x00004988
T14D4 071:488.081    -- CPU_ReadMem(4 bytes @ 0xE000EDF0)
T14D4 071:489.425    -- CPU_WriteMem(4 bytes @ 0xE000EDF0)
T14D4 071:490.349    -- CPU_ReadMem(4 bytes @ 0xE0002000)
T14D4 071:501.987   FPUnit: 6 code (BP) slots and 2 literal slots
T14D4 071:502.228    -- CPU_ReadMem(4 bytes @ 0xE000EDFC)
T14D4 071:503.176    -- CPU_WriteMem(4 bytes @ 0xE000EDFC)
T14D4 071:504.068    -- CPU_ReadMem(4 bytes @ 0xE0001000)
T14D4 071:504.954    -- CPU_WriteMem(4 bytes @ 0xE0001000)
T14D4 071:505.761    -- CPU_ReadMem(4 bytes @ 0xE000ED88)
T14D4 071:506.703    -- CPU_WriteMem(4 bytes @ 0xE000ED88)
T14D4 071:507.642    -- CPU_ReadMem(4 bytes @ 0xE000ED88)
T14D4 071:508.669    -- CPU_WriteMem(4 bytes @ 0xE000ED88)
T14D4 071:517.106   CoreSight components:
T14D4 071:527.411   ROMTbl[0] @ E00FF000
T14D4 071:527.490    -- CPU_ReadMem(64 bytes @ 0xE00FF000)
T14D4 071:529.393    -- CPU_ReadMem(32 bytes @ 0xE000EFE0)
T14D4 071:537.822   ROMTbl[0][0]: E000E000, CID: B105E00D, PID: 000BB00C SCS-M7
T14D4 071:537.921    -- CPU_ReadMem(32 bytes @ 0xE0001FE0)
T14D4 071:546.390   ROMTbl[0][1]: E0001000, CID: B105E00D, PID: 003BB002 DWT
T14D4 071:546.479    -- CPU_ReadMem(32 bytes @ 0xE0002FE0)
T14D4 071:559.190   ROMTbl[0][2]: E0002000, CID: B105E00D, PID: 002BB003 FPB
T14D4 071:559.291    -- CPU_ReadMem(32 bytes @ 0xE0000FE0)
T14D4 071:567.398   ROMTbl[0][3]: E0000000, CID: B105E00D, PID: 003BB001 ITM
T14D4 071:567.495    -- CPU_ReadMem(32 bytes @ 0xE0040FE0)
T14D4 071:579.264   ROMTbl[0][4]: E0040000, CID: B105900D, PID: 000BB9A1 TPIU
T14D4 071:579.357    -- CPU_ReadMem(32 bytes @ 0xE0041FE0)
T14D4 071:587.715   ROMTbl[0][5]: E0041000, CID: B105900D, PID: 000BB925 ETM
T14D4 071:588.626 - 233.366ms   returns 0x2BA01477
T14D4 071:588.706 JLINK_GetDLLVersion()  returns 66201
T14D4 071:588.752 JLINK_CORE_GetFound()
T14D4 071:588.779 - 0.037ms returns 0xE0000FF
T14D4 071:588.909 JLINK_GetDebugInfo(0x100 = JLINKARM_ROM_TABLE_ADDR_INDEX)
T14D4 071:588.937   Value=0xE00FF000
T14D4 071:588.967 - 0.069ms returns 0x00
T14D4 071:592.842 JLINK_GetDebugInfo(0x100 = JLINKARM_ROM_TABLE_ADDR_INDEX)
T14D4 071:592.866   Value=0xE00FF000
T14D4 071:592.878 - 0.040ms returns 0x00
T14D4 071:592.889 JLINK_GetDebugInfo(0x101 = JLINKARM_DEBUG_INFO_ETM_ADDR_INDEX)
T14D4 071:592.901   Value=0xE0041000
T14D4 071:592.913 - 0.027ms returns 0x00
T14D4 071:592.950   JLINK_ReadMemEx(0xE0041FD0, 0x0020 Bytes, ..., Flags = 0x02000004)
T14D4 071:593.004    -- CPU_ReadMem(32 bytes @ 0xE0041FD0)
T14D4 071:594.149   Data:  04 00 00 00 00 00 00 00 00 00 00 00 00 00 00 00 ...
T14D4 071:594.174 - 1.234ms returns 0x20
T14D4 071:594.190 JLINK_GetDebugInfo(0x102 = JLINKARM_DEBUG_INFO_MTB_ADDR_INDEX)
T14D4 071:594.200   Value=0x00000000
T14D4 071:594.211 - 0.025ms returns 0x00
T14D4 071:594.221 JLINK_GetDebugInfo(0x103 = JLINKARM_DEBUG_INFO_TPIU_ADDR_INDEX)
T14D4 071:594.230   Value=0xE0040000
T14D4 071:594.241 - 0.024ms returns 0x00
T14D4 071:594.251 JLINK_GetDebugInfo(0x104 = JLINKARM_DEBUG_INFO_ITM_ADDR_INDEX)
T14D4 071:594.260   Value=0xE0000000
T14D4 071:594.273 - 0.025ms returns 0x00
T14D4 071:594.282 JLINK_GetDebugInfo(0x105 = JLINKARM_DEBUG_INFO_DWT_ADDR_INDEX)
T14D4 071:594.291   Value=0xE0001000
T14D4 071:594.302 - 0.024ms returns 0x00
T14D4 071:594.312 JLINK_GetDebugInfo(0x106 = JLINKARM_DEBUG_INFO_FPB_ADDR_INDEX)
T14D4 071:594.321   Value=0xE0002000
T14D4 071:594.332 - 0.024ms returns 0x00
T14D4 071:594.341 JLINK_GetDebugInfo(0x107 = JLINKARM_DEBUG_INFO_NVIC_ADDR_INDEX)
T14D4 071:594.350   Value=0xE000E000
T14D4 071:594.362 - 0.025ms returns 0x00
T14D4 071:594.372 JLINK_GetDebugInfo(0x10C = JLINKARM_DEBUG_INFO_DBG_ADDR_INDEX)
T14D4 071:594.381   Value=0xE000EDF0
T14D4 071:594.392 - 0.024ms returns 0x00
T14D4 071:594.402 JLINK_GetDebugInfo(0x01 = Unknown)
T14D4 071:594.416   Value=0x00000001
T14D4 071:594.427 - 0.029ms returns 0x00
T14D4 071:594.443   JLINK_ReadMemU32(0xE000ED00, 0x0001 Items, ...)
T14D4 071:594.463    -- CPU_ReadMem(4 bytes @ 0xE000ED00)
T14D4 071:595.166   Data:  41 C2 0F 41
T14D4 071:595.190    - CPUID
T14D4 071:595.202 - 0.764ms returns 1
T14D4 071:595.215 JLINK_GetDebugInfo(0x10F = JLINKARM_DEBUG_INFO_HAS_CORTEX_M_SECURITY_EXT_INDEX)
T14D4 071:595.225   Value=0x00000000
T14D4 071:595.236 - 0.026ms returns 0x00
T14D4 071:595.255 JLINK_SetResetType(JLINKARM_CM3_RESET_TYPE_NORMAL)
T14D4 071:595.268 - 0.018ms returns JLINKARM_CM3_RESET_TYPE_NORMAL
T14D4 071:595.280 JLINK_Reset()
T14D4 071:595.319   CPU is running
T14D4 071:595.334    -- CPU_WriteMem(4 bytes @ 0xE000EDF0)
T14D4 071:596.009   CPU is running
T14D4 071:596.033    -- CPU_WriteMem(4 bytes @ 0xE000EDFC)
T14D4 071:599.578   Reset: Halt core after reset via DEMCR.VC_CORERESET.
T14D4 071:601.726   Reset: Reset device via AIRCR.SYSRESETREQ.
T14D4 071:601.745   CPU is running
T14D4 071:601.755    -- CPU_WriteMem(4 bytes @ 0xE000ED0C)
T14D4 071:655.584    -- CPU_ReadMem(4 bytes @ 0xE000EDF0)
T14D4 071:656.500    -- CPU_ReadMem(4 bytes @ 0xE000EDF0)
T14D4 071:657.443   CPU is running
T14D4 071:657.516    -- CPU_WriteMem(4 bytes @ 0xE000EDF0)
T14D4 071:658.378   CPU is running
T14D4 071:658.431    -- CPU_WriteMem(4 bytes @ 0xE000EDFC)
T14D4 071:665.349    -- CPU_ReadMem(4 bytes @ 0xE000EDF0)
T14D4 071:696.267    -- CPU_WriteMem(4 bytes @ 0xE0002000)
T14D4 071:697.119    -- CPU_ReadMem(4 bytes @ 0xE000EDFC)
T14D4 071:697.950    -- CPU_ReadMem(4 bytes @ 0xE0001000)
T14D4 071:698.885 - 103.644ms
T14D4 071:699.055 JLINK_Halt()
T14D4 071:699.080 - 0.035ms returns 0x00
T14D4 071:699.110   JLINK_ReadMemU32(0xE000EDF0, 0x0001 Items, ...)
T14D4 071:699.161    -- CPU_ReadMem(4 bytes @ 0xE000EDF0)
T14D4 071:699.945   Data:  03 00 03 00
T14D4 071:700.006    - DHCSR
T14D4 071:700.036 - 0.939ms returns 1
T14D4 071:700.127   JLINK_WriteU32(0xE000EDF0, 0xA05F0003)
T14D4 071:700.163    - DHCSR
T14D4 071:700.251    -- CPU_WriteMem(4 bytes @ 0xE000EDF0)
T14D4 071:701.040 - 0.955ms returns 0
T14D4 071:701.108   JLINK_WriteU32(0xE000EDFC, 0x01000000)
T14D4 071:701.142    - DEMCR
T14D4 071:701.192    -- CPU_WriteMem(4 bytes @ 0xE000EDFC)
T14D4 071:701.970 - 0.911ms returns 0
T14D4 071:735.455 JLINK_GetHWStatus(...)
T14D4 071:736.133 - 0.721ms returns 0x00
T14D4 071:753.282 JLINK_GetNumBPUnits(Type = 0xFFFFFF00)
T14D4 071:753.340 - 0.066ms returns 0x06
T14D4 071:753.357 JLINK_GetNumBPUnits(Type = 0xF0)
T14D4 071:753.369 - 0.018ms returns 0x2000
T14D4 071:753.386 JLINK_GetNumWPUnits()
T14D4 071:753.398 - 0.018ms returns 0x04
T14D4 071:765.798 JLINK_GetSpeed()
T14D4 071:765.836 - 0.044ms returns 0x3E8
T14D4 071:773.274   JLINK_ReadMemU32(0xE000E004, 0x0001 Items, ...)
T14D4 071:773.306    -- CPU_ReadMem(4 bytes @ 0xE000E004)
T14D4 071:774.105   Data:  01 00 00 00
T14D4 071:774.118 - 0.847ms returns 1
T14D4 071:774.126   JLINK_ReadMemU32(0xE000E004, 0x0001 Items, ...)
T14D4 071:774.138    -- CPU_ReadMem(4 bytes @ 0xE000E004)
T14D4 071:774.900   Data:  01 00 00 00
T14D4 071:774.914 - 0.790ms returns 1
T14D4 071:774.929 JLINK_WriteMemEx(0xE0001000, 0x001C Bytes, ..., Flags = 0x02000004)
T14D4 071:774.936   Data:  01 00 00 00 00 00 00 00 00 00 00 00 00 00 00 00 ...
T14D4 071:775.502    -- CPU_WriteMem(28 bytes @ 0xE0001000)
T14D4 071:776.577 - 1.656ms returns 0x1C
T14D4 071:776.596 JLINK_Halt()
T14D4 071:776.601 - 0.007ms returns 0x00
T14D4 071:776.611 JLINK_IsHalted()
T14D4 071:776.617 - 0.007ms returns TRUE
T14D4 071:784.213 JLINK_WriteMem(0x20000000, 0x06E4 Bytes, ...)
T14D4 071:784.227   Data:  00 BE 0A E0 0D 78 2D 06 68 40 08 24 40 00 00 D3 ...
T14D4 071:784.526    -- CPU_WriteMem(1764 bytes @ 0x20000000)
T14D4 071:808.579 - 24.394ms returns 0x6E4
T14D4 071:808.733 JLINK_WriteReg(R0, 0x00000000)
T14D4 071:808.756 - 0.030ms returns 0x00
T14D4 071:808.771 JLINK_WriteReg(R1, 0x03D09000)
T14D4 071:808.785 - 0.019ms returns 0x00
T14D4 071:808.798 JLINK_WriteReg(R2, 0x00000001)
T14D4 071:808.811 - 0.018ms returns 0x00
T14D4 071:808.825 JLINK_WriteReg(R3, 0x00000000)
T14D4 071:808.838 - 0.018ms returns 0x00
T14D4 071:808.851 JLINK_WriteReg(R4, 0x00000000)
T14D4 071:808.867 - 0.021ms returns 0x00
T14D4 071:808.881 JLINK_WriteReg(R5, 0x00000000)
T14D4 071:808.893 - 0.019ms returns 0x00
T14D4 071:808.907 JLINK_WriteReg(R6, 0x00000000)
T14D4 071:808.920 - 0.018ms returns 0x00
T14D4 071:808.934 JLINK_WriteReg(R7, 0x00000000)
T14D4 071:808.946 - 0.023ms returns 0x00
T14D4 071:808.968 JLINK_WriteReg(R8, 0x00000000)
T14D4 071:808.996 - 0.034ms returns 0x00
T14D4 071:809.011 JLINK_WriteReg(R9, 0x200006E0)
T14D4 071:809.023 - 0.018ms returns 0x00
T14D4 071:809.037 JLINK_WriteReg(R10, 0x00000000)
T14D4 071:809.050 - 0.019ms returns 0x00
T14D4 071:809.065 JLINK_WriteReg(R11, 0x00000000)
T14D4 071:809.077 - 0.019ms returns 0x00
T14D4 071:809.091 JLINK_WriteReg(R12, 0x00000000)
T14D4 071:809.104 - 0.018ms returns 0x00
T14D4 071:809.118 JLINK_WriteReg(R13 (SP), 0x20002000)
T14D4 071:809.132 - 0.020ms returns 0x00
T14D4 071:809.146 JLINK_WriteReg(R14, 0x20000001)
T14D4 071:809.159 - 0.018ms returns 0x00
T14D4 071:809.173 JLINK_WriteReg(R15 (PC), 0x20000020)
T14D4 071:809.186 - 0.018ms returns 0x00
T14D4 071:809.199 JLINK_WriteReg(XPSR, 0x01000000)
T14D4 071:809.213 - 0.018ms returns 0x00
T14D4 071:809.226 JLINK_WriteReg(MSP, 0x20002000)
T14D4 071:809.239 - 0.018ms returns 0x00
T14D4 071:809.253 JLINK_WriteReg(PSP, 0x20002000)
T14D4 071:809.265 - 0.018ms returns 0x00
T14D4 071:809.280 JLINK_WriteReg(CFBP, 0x00000000)
T14D4 071:809.292 - 0.019ms returns 0x00
T14D4 071:809.311   JLINK_SetBPEx(Addr = 0x20000000, Type = 0xFFFFFFF2)
T14D4 071:809.339    -- CPU_ReadMem(2 bytes @ 0x20000000)
T14D4 071:810.169 - 0.874ms returns 0x00000001
T14D4 071:810.201 JLINK_Go()
T14D4 071:810.221    -- CPU_WriteMem(2 bytes @ 0x20000000)
T14D4 071:810.846    -- CPU_ReadMem(4 bytes @ 0xE0001000)
T14D4 071:811.585    -- CPU_WriteMem(4 bytes @ 0xE0002008)
T14D4 071:811.610    -- CPU_WriteMem(4 bytes @ 0xE000200C)
T14D4 071:811.629    -- CPU_WriteMem(4 bytes @ 0xE0002010)
T14D4 071:811.646    -- CPU_WriteMem(4 bytes @ 0xE0002014)
T14D4 071:811.664    -- CPU_WriteMem(4 bytes @ 0xE0002018)
T14D4 071:811.681    -- CPU_WriteMem(4 bytes @ 0xE000201C)
T14D4 071:814.381    -- CPU_WriteMem(4 bytes @ 0xE0001004)
T14D4 071:821.189 - 11.009ms
T14D4 071:821.224 JLINK_IsHalted()
T14D4 071:827.854    -- CPU_ReadMem(2 bytes @ 0x20000000)
T14D4 071:828.565 - 7.361ms returns TRUE
T14D4 071:828.608 JLINK_ReadReg(R15 (PC))
T14D4 071:828.626 - 0.025ms returns 0x20000000
T14D4 071:828.644 JLINK_ClrBPEx(BPHandle = 0x00000001)
T14D4 071:828.658 - 0.019ms returns 0x00
T14D4 071:828.673 JLINK_ReadReg(R0)
T14D4 071:828.686 - 0.019ms returns 0x00000000
T14D4 071:831.018 JLINK_WriteReg(R0, 0x00026000)
T14D4 071:831.080 - 0.075ms returns 0x00
T14D4 071:831.107 JLINK_WriteReg(R1, 0x00001000)
T14D4 071:831.132 - 0.034ms returns 0x00
T14D4 071:831.156 JLINK_WriteReg(R2, 0x000000FF)
T14D4 071:831.180 - 0.033ms returns 0x00
T14D4 071:831.204 JLINK_WriteReg(R3, 0x00000000)
T14D4 071:831.226 - 0.032ms returns 0x00
T14D4 071:831.250 JLINK_WriteReg(R4, 0x00000000)
T14D4 071:831.272 - 0.032ms returns 0x00
T14D4 071:831.297 JLINK_WriteReg(R5, 0x00000000)
T14D4 071:831.319 - 0.032ms returns 0x00
T14D4 071:831.343 JLINK_WriteReg(R6, 0x00000000)
T14D4 071:831.365 - 0.032ms returns 0x00
T14D4 071:831.389 JLINK_WriteReg(R7, 0x00000000)
T14D4 071:831.412 - 0.032ms returns 0x00
T14D4 071:831.436 JLINK_WriteReg(R8, 0x00000000)
T14D4 071:831.458 - 0.032ms returns 0x00
T14D4 071:831.482 JLINK_WriteReg(R9, 0x200006E0)
T14D4 071:831.504 - 0.032ms returns 0x00
T14D4 071:831.528 JLINK_WriteReg(R10, 0x00000000)
T14D4 071:831.551 - 0.033ms returns 0x00
T14D4 071:831.581 JLINK_WriteReg(R11, 0x00000000)
T14D4 071:831.604 - 0.033ms returns 0x00
T14D4 071:831.628 JLINK_WriteReg(R12, 0x00000000)
T14D4 071:831.651 - 0.032ms returns 0x00
T14D4 071:831.675 JLINK_WriteReg(R13 (SP), 0x20002000)
T14D4 071:831.700 - 0.035ms returns 0x00
T14D4 071:831.723 JLINK_WriteReg(R14, 0x20000001)
T14D4 071:831.746 - 0.032ms returns 0x00
T14D4 071:831.770 JLINK_WriteReg(R15 (PC), 0x20000344)
T14D4 071:831.793 - 0.033ms returns 0x00
T14D4 071:831.817 JLINK_WriteReg(XPSR, 0x01000000)
T14D4 071:831.840 - 0.033ms returns 0x00
T14D4 071:831.864 JLINK_WriteReg(MSP, 0x20002000)
T14D4 071:831.887 - 0.032ms returns 0x00
T14D4 071:831.911 JLINK_WriteReg(PSP, 0x20002000)
T14D4 071:831.933 - 0.032ms returns 0x00
T14D4 071:832.085 JLINK_WriteReg(CFBP, 0x00000000)
T14D4 071:832.118 - 0.044ms returns 0x00
T14D4 071:832.147   JLINK_SetBPEx(Addr = 0x20000000, Type = 0xFFFFFFF2)
T14D4 071:832.181 - 0.047ms returns 0x00000002
T14D4 071:832.207 JLINK_Go()
T14D4 071:832.257    -- CPU_ReadMem(4 bytes @ 0xE0001000)
T14D4 071:839.514 - 7.352ms
T14D4 071:839.599 JLINK_IsHalted()
T14D4 071:846.664    -- CPU_ReadMem(2 bytes @ 0x20000000)
T14D4 071:847.634 - 8.074ms returns TRUE
T14D4 071:847.704 JLINK_ReadReg(R15 (PC))
T14D4 071:847.736 - 0.044ms returns 0x20000000
T14D4 071:847.854 JLINK_ClrBPEx(BPHandle = 0x00000002)
T14D4 071:847.878 - 0.034ms returns 0x00
T14D4 071:847.903 JLINK_ReadReg(R0)
T14D4 071:847.925 - 0.032ms returns 0x00000001
T14D4 071:847.957 JLINK_WriteReg(R0, 0x00026000)
T14D4 071:847.982 - 0.035ms returns 0x00
T14D4 071:848.006 JLINK_WriteReg(R1, 0x00001000)
T14D4 071:848.029 - 0.032ms returns 0x00
T14D4 071:848.053 JLINK_WriteReg(R2, 0x000000FF)
T14D4 071:848.075 - 0.032ms returns 0x00
T14D4 071:848.099 JLINK_WriteReg(R3, 0x00000000)
T14D4 071:848.121 - 0.032ms returns 0x00
T14D4 071:848.145 JLINK_WriteReg(R4, 0x00000000)
T14D4 071:848.167 - 0.032ms returns 0x00
T14D4 071:848.191 JLINK_WriteReg(R5, 0x00000000)
T14D4 071:848.213 - 0.032ms returns 0x00
T14D4 071:848.237 JLINK_WriteReg(R6, 0x00000000)
T14D4 071:848.259 - 0.032ms returns 0x00
T14D4 071:848.284 JLINK_WriteReg(R7, 0x00000000)
T14D4 071:848.305 - 0.032ms returns 0x00
T14D4 071:848.330 JLINK_WriteReg(R8, 0x00000000)
T14D4 071:848.352 - 0.032ms returns 0x00
T14D4 071:848.376 JLINK_WriteReg(R9, 0x200006E0)
T14D4 071:848.398 - 0.032ms returns 0x00
T14D4 071:848.422 JLINK_WriteReg(R10, 0x00000000)
T14D4 071:848.444 - 0.032ms returns 0x00
T14D4 071:848.468 JLINK_WriteReg(R11, 0x00000000)
T14D4 071:848.490 - 0.033ms returns 0x00
T14D4 071:848.515 JLINK_WriteReg(R12, 0x00000000)
T14D4 071:848.537 - 0.032ms returns 0x00
T14D4 071:848.561 JLINK_WriteReg(R13 (SP), 0x20002000)
T14D4 071:848.585 - 0.034ms returns 0x00
T14D4 071:848.609 JLINK_WriteReg(R14, 0x20000001)
T14D4 071:848.631 - 0.036ms returns 0x00
T14D4 071:848.660 JLINK_WriteReg(R15 (PC), 0x20000188)
T14D4 071:848.683 - 0.034ms returns 0x00
T14D4 071:848.714 JLINK_WriteReg(XPSR, 0x01000000)
T14D4 071:848.747 - 0.044ms returns 0x00
T14D4 071:848.773 JLINK_WriteReg(MSP, 0x20002000)
T14D4 071:848.795 - 0.032ms returns 0x00
T14D4 071:848.819 JLINK_WriteReg(PSP, 0x20002000)
T14D4 071:848.841 - 0.032ms returns 0x00
T14D4 071:848.865 JLINK_WriteReg(CFBP, 0x00000000)
T14D4 071:848.888 - 0.032ms returns 0x00
T14D4 071:848.915   JLINK_SetBPEx(Addr = 0x20000000, Type = 0xFFFFFFF2)
T14D4 071:848.949 - 0.047ms returns 0x00000003
T14D4 071:848.974 JLINK_Go()
T14D4 071:849.021    -- CPU_ReadMem(4 bytes @ 0xE0001000)
T14D4 071:856.296 - 7.365ms
T14D4 071:856.365 JLINK_IsHalted()
T14D4 071:857.272 - 0.946ms returns FALSE
T14D4 071:984.264 JLINK_IsHalted()
T14D4 071:991.307    -- CPU_ReadMem(2 bytes @ 0x20000000)
T14D4 071:992.128 - 7.879ms returns TRUE
T14D4 071:992.159 JLINK_ReadReg(R15 (PC))
T14D4 071:992.178 - 0.026ms returns 0x20000000
T14D4 071:992.195 JLINK_ClrBPEx(BPHandle = 0x00000003)
T14D4 071:992.210 - 0.021ms returns 0x00
T14D4 071:992.225 JLINK_ReadReg(R0)
T14D4 071:992.239 - 0.020ms returns 0x00000000
T14D4 071:993.367 JLINK_WriteReg(R0, 0x00027000)
T14D4 071:993.400 - 0.040ms returns 0x00
T14D4 071:993.416 JLINK_WriteReg(R1, 0x00001000)
T14D4 071:993.430 - 0.020ms returns 0x00
T14D4 071:993.445 JLINK_WriteReg(R2, 0x000000FF)
T14D4 071:993.458 - 0.020ms returns 0x00
T14D4 071:993.473 JLINK_WriteReg(R3, 0x00000000)
T14D4 071:993.487 - 0.020ms returns 0x00
T14D4 071:993.502 JLINK_WriteReg(R4, 0x00000000)
T14D4 071:993.515 - 0.019ms returns 0x00
T14D4 071:993.530 JLINK_WriteReg(R5, 0x00000000)
T14D4 071:993.544 - 0.019ms returns 0x00
T14D4 071:993.558 JLINK_WriteReg(R6, 0x00000000)
T14D4 071:993.572 - 0.019ms returns 0x00
T14D4 071:993.587 JLINK_WriteReg(R7, 0x00000000)
T14D4 071:993.601 - 0.019ms returns 0x00
T14D4 071:993.615 JLINK_WriteReg(R8, 0x00000000)
T14D4 071:993.636 - 0.027ms returns 0x00
T14D4 071:993.652 JLINK_WriteReg(R9, 0x200006E0)
T14D4 071:993.665 - 0.020ms returns 0x00
T14D4 071:993.680 JLINK_WriteReg(R10, 0x00000000)
T14D4 071:993.694 - 0.020ms returns 0x00
T14D4 071:993.709 JLINK_WriteReg(R11, 0x00000000)
T14D4 071:993.723 - 0.020ms returns 0x00
T14D4 071:993.737 JLINK_WriteReg(R12, 0x00000000)
T14D4 071:993.751 - 0.020ms returns 0x00
T14D4 071:993.766 JLINK_WriteReg(R13 (SP), 0x20002000)
T14D4 071:993.781 - 0.021ms returns 0x00
T14D4 071:993.796 JLINK_WriteReg(R14, 0x20000001)
T14D4 071:993.810 - 0.020ms returns 0x00
T14D4 071:993.825 JLINK_WriteReg(R15 (PC), 0x20000344)
T14D4 071:993.838 - 0.020ms returns 0x00
T14D4 071:993.854 JLINK_WriteReg(XPSR, 0x01000000)
T14D4 071:993.867 - 0.020ms returns 0x00
T14D4 071:993.882 JLINK_WriteReg(MSP, 0x20002000)
T14D4 071:993.896 - 0.019ms returns 0x00
T14D4 071:993.911 JLINK_WriteReg(PSP, 0x20002000)
T14D4 071:993.925 - 0.020ms returns 0x00
T14D4 071:993.940 JLINK_WriteReg(CFBP, 0x00000000)
T14D4 071:993.953 - 0.019ms returns 0x00
T14D4 071:993.970   JLINK_SetBPEx(Addr = 0x20000000, Type = 0xFFFFFFF2)
T14D4 071:993.991 - 0.029ms returns 0x00000004
T14D4 071:994.007 JLINK_Go()
T14D4 071:994.036    -- CPU_ReadMem(4 bytes @ 0xE0001000)
T14D4 072:000.907 - 6.923ms
T14D4 072:000.950 JLINK_IsHalted()
T14D4 072:007.620    -- CPU_ReadMem(2 bytes @ 0x20000000)
T14D4 072:008.397 - 7.469ms returns TRUE
T14D4 072:008.438 JLINK_ReadReg(R15 (PC))
T14D4 072:008.457 - 0.029ms returns 0x20000000
T14D4 072:008.528 JLINK_ClrBPEx(BPHandle = 0x00000004)
T14D4 072:008.543 - 0.021ms returns 0x00
T14D4 072:008.558 JLINK_ReadReg(R0)
T14D4 072:008.572 - 0.020ms returns 0x00000001
T14D4 072:008.938 JLINK_WriteReg(R0, 0x00027000)
T14D4 072:008.986 - 0.056ms returns 0x00
T14D4 072:009.004 JLINK_WriteReg(R1, 0x00001000)
T14D4 072:009.019 - 0.021ms returns 0x00
T14D4 072:009.034 JLINK_WriteReg(R2, 0x000000FF)
T14D4 072:009.048 - 0.020ms returns 0x00
T14D4 072:009.062 JLINK_WriteReg(R3, 0x00000000)
T14D4 072:009.076 - 0.019ms returns 0x00
T14D4 072:009.091 JLINK_WriteReg(R4, 0x00000000)
T14D4 072:009.105 - 0.019ms returns 0x00
T14D4 072:009.119 JLINK_WriteReg(R5, 0x00000000)
T14D4 072:009.133 - 0.019ms returns 0x00
T14D4 072:009.147 JLINK_WriteReg(R6, 0x00000000)
T14D4 072:009.161 - 0.020ms returns 0x00
T14D4 072:009.176 JLINK_WriteReg(R7, 0x00000000)
T14D4 072:009.189 - 0.019ms returns 0x00
T14D4 072:009.204 JLINK_WriteReg(R8, 0x00000000)
T14D4 072:009.218 - 0.019ms returns 0x00
T14D4 072:009.233 JLINK_WriteReg(R9, 0x200006E0)
T14D4 072:009.246 - 0.019ms returns 0x00
T14D4 072:009.261 JLINK_WriteReg(R10, 0x00000000)
T14D4 072:009.275 - 0.020ms returns 0x00
T14D4 072:009.289 JLINK_WriteReg(R11, 0x00000000)
T14D4 072:009.303 - 0.019ms returns 0x00
T14D4 072:009.318 JLINK_WriteReg(R12, 0x00000000)
T14D4 072:009.332 - 0.019ms returns 0x00
T14D4 072:009.346 JLINK_WriteReg(R13 (SP), 0x20002000)
T14D4 072:009.361 - 0.021ms returns 0x00
T14D4 072:009.376 JLINK_WriteReg(R14, 0x20000001)
T14D4 072:009.390 - 0.020ms returns 0x00
T14D4 072:009.405 JLINK_WriteReg(R15 (PC), 0x20000188)
T14D4 072:009.419 - 0.020ms returns 0x00
T14D4 072:009.433 JLINK_WriteReg(XPSR, 0x01000000)
T14D4 072:009.448 - 0.021ms returns 0x00
T14D4 072:009.465 JLINK_WriteReg(MSP, 0x20002000)
T14D4 072:009.479 - 0.021ms returns 0x00
T14D4 072:009.494 JLINK_WriteReg(PSP, 0x20002000)
T14D4 072:009.507 - 0.019ms returns 0x00
T14D4 072:009.522 JLINK_WriteReg(CFBP, 0x00000000)
T14D4 072:009.576 - 0.060ms returns 0x00
T14D4 072:009.594   JLINK_SetBPEx(Addr = 0x20000000, Type = 0xFFFFFFF2)
T14D4 072:009.615 - 0.029ms returns 0x00000005
T14D4 072:009.631 JLINK_Go()
T14D4 072:009.660    -- CPU_ReadMem(4 bytes @ 0xE0001000)
T14D4 072:016.670 - 7.087ms
T14D4 072:016.744 JLINK_IsHalted()
T14D4 072:017.616 - 0.909ms returns FALSE
T14D4 072:023.495 JLINK_IsHalted()
T14D4 072:030.809    -- CPU_ReadMem(2 bytes @ 0x20000000)
T14D4 072:031.950 - 8.519ms returns TRUE
T14D4 072:032.045 JLINK_ReadReg(R15 (PC))
T14D4 072:032.096 - 0.063ms returns 0x20000000
T14D4 072:032.124 JLINK_ClrBPEx(BPHandle = 0x00000005)
T14D4 072:032.147 - 0.035ms returns 0x00
T14D4 072:032.173 JLINK_ReadReg(R0)
T14D4 072:032.196 - 0.033ms returns 0x00000000
T14D4 072:033.686 JLINK_WriteReg(R0, 0x00028000)
T14D4 072:033.737 - 0.063ms returns 0x00
T14D4 072:033.764 JLINK_WriteReg(R1, 0x00001000)
T14D4 072:033.787 - 0.033ms returns 0x00
T14D4 072:033.811 JLINK_WriteReg(R2, 0x000000FF)
T14D4 072:033.834 - 0.032ms returns 0x00
T14D4 072:033.881 JLINK_WriteReg(R3, 0x00000000)
T14D4 072:033.904 - 0.034ms returns 0x00
T14D4 072:033.928 JLINK_WriteReg(R4, 0x00000000)
T14D4 072:033.951 - 0.032ms returns 0x00
T14D4 072:033.975 JLINK_WriteReg(R5, 0x00000000)
T14D4 072:033.997 - 0.032ms returns 0x00
T14D4 072:034.021 JLINK_WriteReg(R6, 0x00000000)
T14D4 072:034.044 - 0.032ms returns 0x00
T14D4 072:034.067 JLINK_WriteReg(R7, 0x00000000)
T14D4 072:034.090 - 0.032ms returns 0x00
T14D4 072:034.114 JLINK_WriteReg(R8, 0x00000000)
T14D4 072:034.136 - 0.032ms returns 0x00
T14D4 072:034.160 JLINK_WriteReg(R9, 0x200006E0)
T14D4 072:034.182 - 0.032ms returns 0x00
T14D4 072:034.206 JLINK_WriteReg(R10, 0x00000000)
T14D4 072:034.229 - 0.033ms returns 0x00
T14D4 072:034.253 JLINK_WriteReg(R11, 0x00000000)
T14D4 072:034.280 - 0.037ms returns 0x00
T14D4 072:034.307 JLINK_WriteReg(R12, 0x00000000)
T14D4 072:034.340 - 0.047ms returns 0x00
T14D4 072:034.376 JLINK_WriteReg(R13 (SP), 0x20002000)
T14D4 072:034.412 - 0.048ms returns 0x00
T14D4 072:034.439 JLINK_WriteReg(R14, 0x20000001)
T14D4 072:034.462 - 0.034ms returns 0x00
T14D4 072:034.487 JLINK_WriteReg(R15 (PC), 0x20000344)
T14D4 072:034.509 - 0.034ms returns 0x00
T14D4 072:034.534 JLINK_WriteReg(XPSR, 0x01000000)
T14D4 072:034.557 - 0.033ms returns 0x00
T14D4 072:034.581 JLINK_WriteReg(MSP, 0x20002000)
T14D4 072:034.604 - 0.032ms returns 0x00
T14D4 072:034.628 JLINK_WriteReg(PSP, 0x20002000)
T14D4 072:034.651 - 0.032ms returns 0x00
T14D4 072:034.675 JLINK_WriteReg(CFBP, 0x00000000)
T14D4 072:034.698 - 0.032ms returns 0x00
T14D4 072:034.734   JLINK_SetBPEx(Addr = 0x20000000, Type = 0xFFFFFFF2)
T14D4 072:034.770 - 0.049ms returns 0x00000006
T14D4 072:034.892 JLINK_Go()
T14D4 072:034.948    -- CPU_ReadMem(4 bytes @ 0xE0001000)
T14D4 072:042.597 - 7.756ms
T14D4 072:042.676 JLINK_IsHalted()
T14D4 072:050.129    -- CPU_ReadMem(2 bytes @ 0x20000000)
T14D4 072:051.371 - 8.760ms returns TRUE
T14D4 072:051.466 JLINK_ReadReg(R15 (PC))
T14D4 072:051.503 - 0.048ms returns 0x20000000
T14D4 072:051.530 JLINK_ClrBPEx(BPHandle = 0x00000006)
T14D4 072:051.555 - 0.035ms returns 0x00
T14D4 072:051.580 JLINK_ReadReg(R0)
T14D4 072:051.603 - 0.034ms returns 0x00000001
T14D4 072:051.636 JLINK_WriteReg(R0, 0x00028000)
T14D4 072:051.661 - 0.036ms returns 0x00
T14D4 072:051.686 JLINK_WriteReg(R1, 0x00001000)
T14D4 072:051.708 - 0.032ms returns 0x00
T14D4 072:051.732 JLINK_WriteReg(R2, 0x000000FF)
T14D4 072:051.754 - 0.032ms returns 0x00
T14D4 072:051.779 JLINK_WriteReg(R3, 0x00000000)
T14D4 072:051.801 - 0.032ms returns 0x00
T14D4 072:051.825 JLINK_WriteReg(R4, 0x00000000)
T14D4 072:051.846 - 0.032ms returns 0x00
T14D4 072:051.871 JLINK_WriteReg(R5, 0x00000000)
T14D4 072:051.892 - 0.032ms returns 0x00
T14D4 072:051.916 JLINK_WriteReg(R6, 0x00000000)
T14D4 072:051.939 - 0.032ms returns 0x00
T14D4 072:051.962 JLINK_WriteReg(R7, 0x00000000)
T14D4 072:051.985 - 0.032ms returns 0x00
T14D4 072:052.009 JLINK_WriteReg(R8, 0x00000000)
T14D4 072:052.031 - 0.032ms returns 0x00
T14D4 072:052.055 JLINK_WriteReg(R9, 0x200006E0)
T14D4 072:052.077 - 0.032ms returns 0x00
T14D4 072:052.101 JLINK_WriteReg(R10, 0x00000000)
T14D4 072:052.124 - 0.033ms returns 0x00
T14D4 072:052.148 JLINK_WriteReg(R11, 0x00000000)
T14D4 072:052.171 - 0.033ms returns 0x00
T14D4 072:052.195 JLINK_WriteReg(R12, 0x00000000)
T14D4 072:052.217 - 0.033ms returns 0x00
T14D4 072:052.241 JLINK_WriteReg(R13 (SP), 0x20002000)
T14D4 072:052.265 - 0.034ms returns 0x00
T14D4 072:052.289 JLINK_WriteReg(R14, 0x20000001)
T14D4 072:052.320 - 0.053ms returns 0x00
T14D4 072:052.357 JLINK_WriteReg(R15 (PC), 0x20000188)
T14D4 072:052.380 - 0.034ms returns 0x00
T14D4 072:052.404 JLINK_WriteReg(XPSR, 0x01000000)
T14D4 072:052.427 - 0.032ms returns 0x00
T14D4 072:052.451 JLINK_WriteReg(MSP, 0x20002000)
T14D4 072:052.473 - 0.032ms returns 0x00
T14D4 072:052.497 JLINK_WriteReg(PSP, 0x20002000)
T14D4 072:052.519 - 0.032ms returns 0x00
T14D4 072:052.544 JLINK_WriteReg(CFBP, 0x00000000)
T14D4 072:052.566 - 0.032ms returns 0x00
T14D4 072:052.594   JLINK_SetBPEx(Addr = 0x20000000, Type = 0xFFFFFFF2)
T14D4 072:052.650 - 0.069ms returns 0x00000007
T14D4 072:052.675 JLINK_Go()
T14D4 072:052.722    -- CPU_ReadMem(4 bytes @ 0xE0001000)
T14D4 072:060.154 - 7.538ms
T14D4 072:060.248 JLINK_IsHalted()
T14D4 072:061.007 - 0.781ms returns FALSE
T14D4 072:062.400 JLINK_IsHalted()
T14D4 072:069.236    -- CPU_ReadMem(2 bytes @ 0x20000000)
T14D4 072:070.092 - 7.715ms returns TRUE
T14D4 072:070.138 JLINK_ReadReg(R15 (PC))
T14D4 072:070.168 - 0.041ms returns 0x20000000
T14D4 072:070.195 JLINK_ClrBPEx(BPHandle = 0x00000007)
T14D4 072:070.219 - 0.035ms returns 0x00
T14D4 072:070.244 JLINK_ReadReg(R0)
T14D4 072:070.267 - 0.033ms returns 0x00000000
T14D4 072:071.768 JLINK_WriteReg(R0, 0x00029000)
T14D4 072:071.821 - 0.065ms returns 0x00
T14D4 072:071.847 JLINK_WriteReg(R1, 0x00001000)
T14D4 072:071.871 - 0.033ms returns 0x00
T14D4 072:071.895 JLINK_WriteReg(R2, 0x000000FF)
T14D4 072:071.918 - 0.033ms returns 0x00
T14D4 072:071.942 JLINK_WriteReg(R3, 0x00000000)
T14D4 072:071.963 - 0.032ms returns 0x00
T14D4 072:071.988 JLINK_WriteReg(R4, 0x00000000)
T14D4 072:072.010 - 0.032ms returns 0x00
T14D4 072:072.034 JLINK_WriteReg(R5, 0x00000000)
T14D4 072:072.056 - 0.032ms returns 0x00
T14D4 072:072.080 JLINK_WriteReg(R6, 0x00000000)
T14D4 072:072.102 - 0.032ms returns 0x00
T14D4 072:072.126 JLINK_WriteReg(R7, 0x00000000)
T14D4 072:072.148 - 0.032ms returns 0x00
T14D4 072:072.172 JLINK_WriteReg(R8, 0x00000000)
T14D4 072:072.194 - 0.032ms returns 0x00
T14D4 072:072.218 JLINK_WriteReg(R9, 0x200006E0)
T14D4 072:072.241 - 0.032ms returns 0x00
T14D4 072:072.264 JLINK_WriteReg(R10, 0x00000000)
T14D4 072:072.287 - 0.033ms returns 0x00
T14D4 072:072.311 JLINK_WriteReg(R11, 0x00000000)
T14D4 072:072.334 - 0.032ms returns 0x00
T14D4 072:072.358 JLINK_WriteReg(R12, 0x00000000)
T14D4 072:072.383 - 0.036ms returns 0x00
T14D4 072:072.408 JLINK_WriteReg(R13 (SP), 0x20002000)
T14D4 072:072.433 - 0.035ms returns 0x00
T14D4 072:072.457 JLINK_WriteReg(R14, 0x20000001)
T14D4 072:072.479 - 0.033ms returns 0x00
T14D4 072:072.503 JLINK_WriteReg(R15 (PC), 0x20000344)
T14D4 072:072.526 - 0.033ms returns 0x00
T14D4 072:072.551 JLINK_WriteReg(XPSR, 0x01000000)
T14D4 072:072.573 - 0.033ms returns 0x00
T14D4 072:072.597 JLINK_WriteReg(MSP, 0x20002000)
T14D4 072:072.619 - 0.032ms returns 0x00
T14D4 072:072.643 JLINK_WriteReg(PSP, 0x20002000)
T14D4 072:072.665 - 0.032ms returns 0x00
T14D4 072:072.689 JLINK_WriteReg(CFBP, 0x00000000)
T14D4 072:072.712 - 0.032ms returns 0x00
T14D4 072:072.740   JLINK_SetBPEx(Addr = 0x20000000, Type = 0xFFFFFFF2)
T14D4 072:072.775 - 0.048ms returns 0x00000008
T14D4 072:072.800 JLINK_Go()
T14D4 072:072.848    -- CPU_ReadMem(4 bytes @ 0xE0001000)
T14D4 072:080.104 - 7.358ms
T14D4 072:080.187 JLINK_IsHalted()
T14D4 072:087.323    -- CPU_ReadMem(2 bytes @ 0x20000000)
T14D4 072:088.453 - 8.329ms returns TRUE
T14D4 072:088.555 JLINK_ReadReg(R15 (PC))
T14D4 072:088.591 - 0.048ms returns 0x20000000
T14D4 072:088.718 JLINK_ClrBPEx(BPHandle = 0x00000008)
T14D4 072:088.744 - 0.036ms returns 0x00
T14D4 072:088.769 JLINK_ReadReg(R0)
T14D4 072:088.792 - 0.033ms returns 0x00000001
T14D4 072:088.824 JLINK_WriteReg(R0, 0x00029000)
T14D4 072:088.850 - 0.035ms returns 0x00
T14D4 072:088.874 JLINK_WriteReg(R1, 0x00001000)
T14D4 072:088.898 - 0.034ms returns 0x00
T14D4 072:088.922 JLINK_WriteReg(R2, 0x000000FF)
T14D4 072:088.944 - 0.032ms returns 0x00
T14D4 072:088.968 JLINK_WriteReg(R3, 0x00000000)
T14D4 072:089.122 - 0.172ms returns 0x00
T14D4 072:089.158 JLINK_WriteReg(R4, 0x00000000)
T14D4 072:089.181 - 0.033ms returns 0x00
T14D4 072:089.205 JLINK_WriteReg(R5, 0x00000000)
T14D4 072:089.228 - 0.032ms returns 0x00
T14D4 072:089.251 JLINK_WriteReg(R6, 0x00000000)
T14D4 072:089.274 - 0.032ms returns 0x00
T14D4 072:089.298 JLINK_WriteReg(R7, 0x00000000)
T14D4 072:089.320 - 0.032ms returns 0x00
T14D4 072:089.344 JLINK_WriteReg(R8, 0x00000000)
T14D4 072:089.366 - 0.032ms returns 0x00
T14D4 072:089.390 JLINK_WriteReg(R9, 0x200006E0)
T14D4 072:089.412 - 0.032ms returns 0x00
T14D4 072:089.442 JLINK_WriteReg(R10, 0x00000000)
T14D4 072:089.465 - 0.032ms returns 0x00
T14D4 072:089.489 JLINK_WriteReg(R11, 0x00000000)
T14D4 072:089.511 - 0.032ms returns 0x00
T14D4 072:089.535 JLINK_WriteReg(R12, 0x00000000)
T14D4 072:089.558 - 0.032ms returns 0x00
T14D4 072:089.582 JLINK_WriteReg(R13 (SP), 0x20002000)
T14D4 072:089.606 - 0.034ms returns 0x00
T14D4 072:089.630 JLINK_WriteReg(R14, 0x20000001)
T14D4 072:089.653 - 0.032ms returns 0x00
T14D4 072:089.676 JLINK_WriteReg(R15 (PC), 0x20000188)
T14D4 072:089.700 - 0.033ms returns 0x00
T14D4 072:089.724 JLINK_WriteReg(XPSR, 0x01000000)
T14D4 072:089.746 - 0.033ms returns 0x00
T14D4 072:089.770 JLINK_WriteReg(MSP, 0x20002000)
T14D4 072:089.792 - 0.032ms returns 0x00
T14D4 072:089.816 JLINK_WriteReg(PSP, 0x20002000)
T14D4 072:089.839 - 0.032ms returns 0x00
T14D4 072:089.862 JLINK_WriteReg(CFBP, 0x00000000)
T14D4 072:089.885 - 0.032ms returns 0x00
T14D4 072:089.912   JLINK_SetBPEx(Addr = 0x20000000, Type = 0xFFFFFFF2)
T14D4 072:089.947 - 0.047ms returns 0x00000009
T14D4 072:089.972 JLINK_Go()
T14D4 072:090.024    -- CPU_ReadMem(4 bytes @ 0xE0001000)
T14D4 072:097.771 - 7.854ms
T14D4 072:097.855 JLINK_IsHalted()
T14D4 072:098.785 - 0.973ms returns FALSE
T14D4 072:110.565 JLINK_IsHalted()
T14D4 072:117.624    -- CPU_ReadMem(2 bytes @ 0x20000000)
T14D4 072:118.544 - 8.019ms returns TRUE
T14D4 072:118.616 JLINK_ReadReg(R15 (PC))
T14D4 072:118.651 - 0.045ms returns 0x20000000
T14D4 072:118.764 JLINK_ClrBPEx(BPHandle = 0x00000009)
T14D4 072:118.789 - 0.034ms returns 0x00
T14D4 072:118.814 JLINK_ReadReg(R0)
T14D4 072:118.837 - 0.034ms returns 0x00000000
T14D4 072:120.195 JLINK_WriteReg(R0, 0x0002A000)
T14D4 072:120.248 - 0.065ms returns 0x00
T14D4 072:120.275 JLINK_WriteReg(R1, 0x00001000)
T14D4 072:120.298 - 0.033ms returns 0x00
T14D4 072:120.322 JLINK_WriteReg(R2, 0x000000FF)
T14D4 072:120.345 - 0.033ms returns 0x00
T14D4 072:120.369 JLINK_WriteReg(R3, 0x00000000)
T14D4 072:120.392 - 0.033ms returns 0x00
T14D4 072:120.416 JLINK_WriteReg(R4, 0x00000000)
T14D4 072:120.458 - 0.052ms returns 0x00
T14D4 072:120.483 JLINK_WriteReg(R5, 0x00000000)
T14D4 072:120.505 - 0.032ms returns 0x00
T14D4 072:120.528 JLINK_WriteReg(R6, 0x00000000)
T14D4 072:120.551 - 0.032ms returns 0x00
T14D4 072:120.575 JLINK_WriteReg(R7, 0x00000000)
T14D4 072:120.596 - 0.031ms returns 0x00
T14D4 072:120.621 JLINK_WriteReg(R8, 0x00000000)
T14D4 072:120.643 - 0.032ms returns 0x00
T14D4 072:120.666 JLINK_WriteReg(R9, 0x200006E0)
T14D4 072:120.688 - 0.032ms returns 0x00
T14D4 072:120.712 JLINK_WriteReg(R10, 0x00000000)
T14D4 072:120.735 - 0.033ms returns 0x00
T14D4 072:120.759 JLINK_WriteReg(R11, 0x00000000)
T14D4 072:120.782 - 0.032ms returns 0x00
T14D4 072:120.806 JLINK_WriteReg(R12, 0x00000000)
T14D4 072:120.828 - 0.032ms returns 0x00
T14D4 072:120.852 JLINK_WriteReg(R13 (SP), 0x20002000)
T14D4 072:120.876 - 0.034ms returns 0x00
T14D4 072:120.900 JLINK_WriteReg(R14, 0x20000001)
T14D4 072:120.923 - 0.033ms returns 0x00
T14D4 072:120.947 JLINK_WriteReg(R15 (PC), 0x20000344)
T14D4 072:120.969 - 0.032ms returns 0x00
T14D4 072:120.993 JLINK_WriteReg(XPSR, 0x01000000)
T14D4 072:121.016 - 0.056ms returns 0x00
T14D4 072:121.064 JLINK_WriteReg(MSP, 0x20002000)
T14D4 072:121.086 - 0.032ms returns 0x00
T14D4 072:121.110 JLINK_WriteReg(PSP, 0x20002000)
T14D4 072:121.132 - 0.032ms returns 0x00
T14D4 072:121.156 JLINK_WriteReg(CFBP, 0x00000000)
T14D4 072:121.198 - 0.057ms returns 0x00
T14D4 072:121.232   JLINK_SetBPEx(Addr = 0x20000000, Type = 0xFFFFFFF2)
T14D4 072:121.266 - 0.047ms returns 0x0000000A
T14D4 072:121.291 JLINK_Go()
T14D4 072:121.341    -- CPU_ReadMem(4 bytes @ 0xE0001000)
T14D4 072:128.714 - 7.484ms
T14D4 072:128.806 JLINK_IsHalted()
T14D4 072:135.825    -- CPU_ReadMem(2 bytes @ 0x20000000)
T14D4 072:136.680 - 7.920ms returns TRUE
T14D4 072:136.754 JLINK_ReadReg(R15 (PC))
T14D4 072:136.787 - 0.045ms returns 0x20000000
T14D4 072:136.814 JLINK_ClrBPEx(BPHandle = 0x0000000A)
T14D4 072:136.839 - 0.035ms returns 0x00
T14D4 072:136.865 JLINK_ReadReg(R0)
T14D4 072:136.887 - 0.034ms returns 0x00000001
T14D4 072:136.920 JLINK_WriteReg(R0, 0x0002A000)
T14D4 072:136.945 - 0.036ms returns 0x00
T14D4 072:136.969 JLINK_WriteReg(R1, 0x00001000)
T14D4 072:136.992 - 0.032ms returns 0x00
T14D4 072:137.017 JLINK_WriteReg(R2, 0x000000FF)
T14D4 072:137.039 - 0.033ms returns 0x00
T14D4 072:137.064 JLINK_WriteReg(R3, 0x00000000)
T14D4 072:137.094 - 0.040ms returns 0x00
T14D4 072:137.119 JLINK_WriteReg(R4, 0x00000000)
T14D4 072:137.141 - 0.033ms returns 0x00
T14D4 072:137.166 JLINK_WriteReg(R5, 0x00000000)
T14D4 072:137.209 - 0.056ms returns 0x00
T14D4 072:137.237 JLINK_WriteReg(R6, 0x00000000)
T14D4 072:137.260 - 0.032ms returns 0x00
T14D4 072:137.284 JLINK_WriteReg(R7, 0x00000000)
T14D4 072:137.307 - 0.032ms returns 0x00
T14D4 072:137.331 JLINK_WriteReg(R8, 0x00000000)
T14D4 072:137.353 - 0.032ms returns 0x00
T14D4 072:137.377 JLINK_WriteReg(R9, 0x200006E0)
T14D4 072:137.400 - 0.032ms returns 0x00
T14D4 072:137.423 JLINK_WriteReg(R10, 0x00000000)
T14D4 072:137.446 - 0.033ms returns 0x00
T14D4 072:137.471 JLINK_WriteReg(R11, 0x00000000)
T14D4 072:137.493 - 0.032ms returns 0x00
T14D4 072:137.518 JLINK_WriteReg(R12, 0x00000000)
T14D4 072:137.540 - 0.032ms returns 0x00
T14D4 072:137.564 JLINK_WriteReg(R13 (SP), 0x20002000)
T14D4 072:137.588 - 0.033ms returns 0x00
T14D4 072:137.612 JLINK_WriteReg(R14, 0x20000001)
T14D4 072:137.634 - 0.032ms returns 0x00
T14D4 072:137.658 JLINK_WriteReg(R15 (PC), 0x20000188)
T14D4 072:137.682 - 0.056ms returns 0x00
T14D4 072:137.729 JLINK_WriteReg(XPSR, 0x01000000)
T14D4 072:137.752 - 0.033ms returns 0x00
T14D4 072:137.776 JLINK_WriteReg(MSP, 0x20002000)
T14D4 072:137.799 - 0.032ms returns 0x00
T14D4 072:137.823 JLINK_WriteReg(PSP, 0x20002000)
T14D4 072:137.845 - 0.032ms returns 0x00
T14D4 072:137.869 JLINK_WriteReg(CFBP, 0x00000000)
T14D4 072:137.892 - 0.032ms returns 0x00
T14D4 072:137.919   JLINK_SetBPEx(Addr = 0x20000000, Type = 0xFFFFFFF2)
T14D4 072:137.954 - 0.047ms returns 0x0000000B
T14D4 072:137.978 JLINK_Go()
T14D4 072:138.025    -- CPU_ReadMem(4 bytes @ 0xE0001000)
T14D4 072:145.532 - 7.614ms
T14D4 072:145.628 JLINK_IsHalted()
T14D4 072:146.540 - 0.952ms returns FALSE
T14D4 072:151.514 JLINK_IsHalted()
T14D4 072:158.981    -- CPU_ReadMem(2 bytes @ 0x20000000)
T14D4 072:160.134 - 8.685ms returns TRUE
T14D4 072:160.230 JLINK_ReadReg(R15 (PC))
T14D4 072:160.265 - 0.047ms returns 0x20000000
T14D4 072:160.292 JLINK_ClrBPEx(BPHandle = 0x0000000B)
T14D4 072:160.323 - 0.110ms returns 0x00
T14D4 072:160.423 JLINK_ReadReg(R0)
T14D4 072:160.448 - 0.036ms returns 0x00000000
T14D4 072:163.841 JLINK_WriteReg(R0, 0x0002B000)
T14D4 072:163.907 - 0.079ms returns 0x00
T14D4 072:163.936 JLINK_WriteReg(R1, 0x00001000)
T14D4 072:163.960 - 0.034ms returns 0x00
T14D4 072:163.984 JLINK_WriteReg(R2, 0x000000FF)
T14D4 072:164.007 - 0.033ms returns 0x00
T14D4 072:164.031 JLINK_WriteReg(R3, 0x00000000)
T14D4 072:164.054 - 0.032ms returns 0x00
T14D4 072:164.078 JLINK_WriteReg(R4, 0x00000000)
T14D4 072:164.100 - 0.032ms returns 0x00
T14D4 072:164.125 JLINK_WriteReg(R5, 0x00000000)
T14D4 072:164.147 - 0.032ms returns 0x00
T14D4 072:164.171 JLINK_WriteReg(R6, 0x00000000)
T14D4 072:164.194 - 0.032ms returns 0x00
T14D4 072:164.218 JLINK_WriteReg(R7, 0x00000000)
T14D4 072:164.240 - 0.032ms returns 0x00
T14D4 072:164.264 JLINK_WriteReg(R8, 0x00000000)
T14D4 072:164.293 - 0.042ms returns 0x00
T14D4 072:164.344 JLINK_WriteReg(R9, 0x200006E0)
T14D4 072:164.374 - 0.040ms returns 0x00
T14D4 072:164.398 JLINK_WriteReg(R10, 0x00000000)
T14D4 072:164.421 - 0.032ms returns 0x00
T14D4 072:164.445 JLINK_WriteReg(R11, 0x00000000)
T14D4 072:164.468 - 0.032ms returns 0x00
T14D4 072:164.492 JLINK_WriteReg(R12, 0x00000000)
T14D4 072:164.514 - 0.032ms returns 0x00
T14D4 072:164.538 JLINK_WriteReg(R13 (SP), 0x20002000)
T14D4 072:164.563 - 0.035ms returns 0x00
T14D4 072:164.587 JLINK_WriteReg(R14, 0x20000001)
T14D4 072:164.610 - 0.034ms returns 0x00
T14D4 072:164.634 JLINK_WriteReg(R15 (PC), 0x20000344)
T14D4 072:164.657 - 0.032ms returns 0x00
T14D4 072:164.681 JLINK_WriteReg(XPSR, 0x01000000)
T14D4 072:164.703 - 0.032ms returns 0x00
T14D4 072:164.727 JLINK_WriteReg(MSP, 0x20002000)
T14D4 072:164.749 - 0.032ms returns 0x00
T14D4 072:164.773 JLINK_WriteReg(PSP, 0x20002000)
T14D4 072:164.796 - 0.032ms returns 0x00
T14D4 072:164.819 JLINK_WriteReg(CFBP, 0x00000000)
T14D4 072:164.842 - 0.032ms returns 0x00
T14D4 072:164.869   JLINK_SetBPEx(Addr = 0x20000000, Type = 0xFFFFFFF2)
T14D4 072:164.905 - 0.047ms returns 0x0000000C
T14D4 072:164.930 JLINK_Go()
T14D4 072:164.983    -- CPU_ReadMem(4 bytes @ 0xE0001000)
T14D4 072:172.699 - 7.833ms
T14D4 072:172.801 JLINK_IsHalted()
T14D4 072:180.104    -- CPU_ReadMem(2 bytes @ 0x20000000)
T14D4 072:181.031 - 8.269ms returns TRUE
T14D4 072:181.106 JLINK_ReadReg(R15 (PC))
T14D4 072:181.140 - 0.046ms returns 0x20000000
T14D4 072:181.167 JLINK_ClrBPEx(BPHandle = 0x0000000C)
T14D4 072:181.191 - 0.034ms returns 0x00
T14D4 072:181.306 JLINK_ReadReg(R0)
T14D4 072:181.334 - 0.039ms returns 0x00000001
T14D4 072:181.368 JLINK_WriteReg(R0, 0x0002B000)
T14D4 072:181.393 - 0.035ms returns 0x00
T14D4 072:181.417 JLINK_WriteReg(R1, 0x00001000)
T14D4 072:181.440 - 0.032ms returns 0x00
T14D4 072:181.463 JLINK_WriteReg(R2, 0x000000FF)
T14D4 072:181.486 - 0.032ms returns 0x00
T14D4 072:181.510 JLINK_WriteReg(R3, 0x00000000)
T14D4 072:181.532 - 0.032ms returns 0x00
T14D4 072:181.557 JLINK_WriteReg(R4, 0x00000000)
T14D4 072:181.579 - 0.032ms returns 0x00
T14D4 072:181.603 JLINK_WriteReg(R5, 0x00000000)
T14D4 072:181.625 - 0.032ms returns 0x00
T14D4 072:181.649 JLINK_WriteReg(R6, 0x00000000)
T14D4 072:181.671 - 0.032ms returns 0x00
T14D4 072:181.695 JLINK_WriteReg(R7, 0x00000000)
T14D4 072:181.717 - 0.032ms returns 0x00
T14D4 072:181.741 JLINK_WriteReg(R8, 0x00000000)
T14D4 072:181.763 - 0.032ms returns 0x00
T14D4 072:181.787 JLINK_WriteReg(R9, 0x200006E0)
T14D4 072:181.809 - 0.032ms returns 0x00
T14D4 072:181.834 JLINK_WriteReg(R10, 0x00000000)
T14D4 072:181.857 - 0.032ms returns 0x00
T14D4 072:181.880 JLINK_WriteReg(R11, 0x00000000)
T14D4 072:181.903 - 0.032ms returns 0x00
T14D4 072:181.927 JLINK_WriteReg(R12, 0x00000000)
T14D4 072:181.949 - 0.032ms returns 0x00
T14D4 072:181.974 JLINK_WriteReg(R13 (SP), 0x20002000)
T14D4 072:181.997 - 0.034ms returns 0x00
T14D4 072:182.021 JLINK_WriteReg(R14, 0x20000001)
T14D4 072:182.044 - 0.032ms returns 0x00
T14D4 072:182.068 JLINK_WriteReg(R15 (PC), 0x20000188)
T14D4 072:182.090 - 0.033ms returns 0x00
T14D4 072:182.114 JLINK_WriteReg(XPSR, 0x01000000)
T14D4 072:182.138 - 0.032ms returns 0x00
T14D4 072:182.161 JLINK_WriteReg(MSP, 0x20002000)
T14D4 072:182.184 - 0.033ms returns 0x00
T14D4 072:182.208 JLINK_WriteReg(PSP, 0x20002000)
T14D4 072:182.230 - 0.032ms returns 0x00
T14D4 072:182.254 JLINK_WriteReg(CFBP, 0x00000000)
T14D4 072:182.277 - 0.032ms returns 0x00
T14D4 072:182.304   JLINK_SetBPEx(Addr = 0x20000000, Type = 0xFFFFFFF2)
T14D4 072:182.338 - 0.049ms returns 0x0000000D
T14D4 072:182.366 JLINK_Go()
T14D4 072:182.413    -- CPU_ReadMem(4 bytes @ 0xE0001000)
T14D4 072:189.720 - 7.395ms
T14D4 072:189.786 JLINK_IsHalted()
T14D4 072:190.674 - 0.928ms returns FALSE
T14D4 072:192.445 JLINK_IsHalted()
T14D4 072:199.429    -- CPU_ReadMem(2 bytes @ 0x20000000)
T14D4 072:200.336 - 7.929ms returns TRUE
T14D4 072:200.401 JLINK_ReadReg(R15 (PC))
T14D4 072:200.433 - 0.043ms returns 0x20000000
T14D4 072:200.477 JLINK_ClrBPEx(BPHandle = 0x0000000D)
T14D4 072:200.507 - 0.040ms returns 0x00
T14D4 072:200.533 JLINK_ReadReg(R0)
T14D4 072:200.556 - 0.033ms returns 0x00000000
T14D4 072:202.205 JLINK_WriteReg(R0, 0x0002C000)
T14D4 072:202.267 - 0.075ms returns 0x00
T14D4 072:202.295 JLINK_WriteReg(R1, 0x00001000)
T14D4 072:202.319 - 0.034ms returns 0x00
T14D4 072:202.343 JLINK_WriteReg(R2, 0x000000FF)
T14D4 072:202.367 - 0.034ms returns 0x00
T14D4 072:202.391 JLINK_WriteReg(R3, 0x00000000)
T14D4 072:202.414 - 0.033ms returns 0x00
T14D4 072:202.438 JLINK_WriteReg(R4, 0x00000000)
T14D4 072:202.460 - 0.032ms returns 0x00
T14D4 072:202.484 JLINK_WriteReg(R5, 0x00000000)
T14D4 072:202.506 - 0.032ms returns 0x00
T14D4 072:202.530 JLINK_WriteReg(R6, 0x00000000)
T14D4 072:202.552 - 0.032ms returns 0x00
T14D4 072:202.576 JLINK_WriteReg(R7, 0x00000000)
T14D4 072:202.598 - 0.032ms returns 0x00
T14D4 072:202.622 JLINK_WriteReg(R8, 0x00000000)
T14D4 072:202.644 - 0.035ms returns 0x00
T14D4 072:202.672 JLINK_WriteReg(R9, 0x200006E0)
T14D4 072:202.694 - 0.032ms returns 0x00
T14D4 072:202.718 JLINK_WriteReg(R10, 0x00000000)
T14D4 072:202.741 - 0.033ms returns 0x00
T14D4 072:202.789 JLINK_WriteReg(R11, 0x00000000)
T14D4 072:202.812 - 0.033ms returns 0x00
T14D4 072:202.835 JLINK_WriteReg(R12, 0x00000000)
T14D4 072:202.858 - 0.032ms returns 0x00
T14D4 072:202.882 JLINK_WriteReg(R13 (SP), 0x20002000)
T14D4 072:202.907 - 0.035ms returns 0x00
T14D4 072:202.931 JLINK_WriteReg(R14, 0x20000001)
T14D4 072:202.953 - 0.033ms returns 0x00
T14D4 072:202.978 JLINK_WriteReg(R15 (PC), 0x20000344)
T14D4 072:203.000 - 0.032ms returns 0x00
T14D4 072:203.024 JLINK_WriteReg(XPSR, 0x01000000)
T14D4 072:203.072 - 0.058ms returns 0x00
T14D4 072:203.097 JLINK_WriteReg(MSP, 0x20002000)
T14D4 072:203.119 - 0.033ms returns 0x00
T14D4 072:203.144 JLINK_WriteReg(PSP, 0x20002000)
T14D4 072:203.170 - 0.042ms returns 0x00
T14D4 072:203.206 JLINK_WriteReg(CFBP, 0x00000000)
T14D4 072:203.230 - 0.034ms returns 0x00
T14D4 072:203.259   JLINK_SetBPEx(Addr = 0x20000000, Type = 0xFFFFFFF2)
T14D4 072:203.293 - 0.048ms returns 0x0000000E
T14D4 072:203.319 JLINK_Go()
T14D4 072:203.370    -- CPU_ReadMem(4 bytes @ 0xE0001000)
T14D4 072:210.733 - 7.455ms
T14D4 072:210.806 JLINK_IsHalted()
T14D4 072:217.666    -- CPU_ReadMem(2 bytes @ 0x20000000)
T14D4 072:218.529 - 7.747ms returns TRUE
T14D4 072:218.578 JLINK_ReadReg(R15 (PC))
T14D4 072:218.607 - 0.041ms returns 0x20000000
T14D4 072:218.634 JLINK_ClrBPEx(BPHandle = 0x0000000E)
T14D4 072:218.657 - 0.034ms returns 0x00
T14D4 072:218.683 JLINK_ReadReg(R0)
T14D4 072:218.706 - 0.034ms returns 0x00000001
T14D4 072:218.820 JLINK_WriteReg(R0, 0x0002C000)
T14D4 072:218.844 - 0.035ms returns 0x00
T14D4 072:218.869 JLINK_WriteReg(R1, 0x00001000)
T14D4 072:218.891 - 0.032ms returns 0x00
T14D4 072:218.916 JLINK_WriteReg(R2, 0x000000FF)
T14D4 072:218.938 - 0.032ms returns 0x00
T14D4 072:218.962 JLINK_WriteReg(R3, 0x00000000)
T14D4 072:218.984 - 0.035ms returns 0x00
T14D4 072:219.014 JLINK_WriteReg(R4, 0x00000000)
T14D4 072:219.045 - 0.042ms returns 0x00
T14D4 072:219.075 JLINK_WriteReg(R5, 0x00000000)
T14D4 072:219.105 - 0.040ms returns 0x00
T14D4 072:219.129 JLINK_WriteReg(R6, 0x00000000)
T14D4 072:219.151 - 0.032ms returns 0x00
T14D4 072:219.176 JLINK_WriteReg(R7, 0x00000000)
T14D4 072:219.198 - 0.032ms returns 0x00
T14D4 072:219.222 JLINK_WriteReg(R8, 0x00000000)
T14D4 072:219.245 - 0.032ms returns 0x00
T14D4 072:219.268 JLINK_WriteReg(R9, 0x200006E0)
T14D4 072:219.291 - 0.032ms returns 0x00
T14D4 072:219.315 JLINK_WriteReg(R10, 0x00000000)
T14D4 072:219.337 - 0.032ms returns 0x00
T14D4 072:219.361 JLINK_WriteReg(R11, 0x00000000)
T14D4 072:219.383 - 0.032ms returns 0x00
T14D4 072:219.407 JLINK_WriteReg(R12, 0x00000000)
T14D4 072:219.429 - 0.032ms returns 0x00
T14D4 072:219.453 JLINK_WriteReg(R13 (SP), 0x20002000)
T14D4 072:219.478 - 0.034ms returns 0x00
T14D4 072:219.502 JLINK_WriteReg(R14, 0x20000001)
T14D4 072:219.524 - 0.033ms returns 0x00
T14D4 072:219.557 JLINK_WriteReg(R15 (PC), 0x20000188)
T14D4 072:219.586 - 0.041ms returns 0x00
T14D4 072:219.619 JLINK_WriteReg(XPSR, 0x01000000)
T14D4 072:219.651 - 0.042ms returns 0x00
T14D4 072:219.676 JLINK_WriteReg(MSP, 0x20002000)
T14D4 072:219.698 - 0.032ms returns 0x00
T14D4 072:219.722 JLINK_WriteReg(PSP, 0x20002000)
T14D4 072:219.745 - 0.032ms returns 0x00
T14D4 072:219.769 JLINK_WriteReg(CFBP, 0x00000000)
T14D4 072:219.791 - 0.032ms returns 0x00
T14D4 072:219.823   JLINK_SetBPEx(Addr = 0x20000000, Type = 0xFFFFFFF2)
T14D4 072:219.871 - 0.067ms returns 0x0000000F
T14D4 072:219.905 JLINK_Go()
T14D4 072:219.952    -- CPU_ReadMem(4 bytes @ 0xE0001000)
T14D4 072:227.464 - 7.626ms
T14D4 072:227.564 JLINK_IsHalted()
T14D4 072:228.610 - 1.094ms returns FALSE
T14D4 072:233.104 JLINK_IsHalted()
T14D4 072:240.219    -- CPU_ReadMem(2 bytes @ 0x20000000)
T14D4 072:241.079 - 8.016ms returns TRUE
T14D4 072:241.149 JLINK_ReadReg(R15 (PC))
T14D4 072:241.182 - 0.044ms returns 0x20000000
T14D4 072:241.208 JLINK_ClrBPEx(BPHandle = 0x0000000F)
T14D4 072:241.233 - 0.035ms returns 0x00
T14D4 072:241.258 JLINK_ReadReg(R0)
T14D4 072:241.282 - 0.034ms returns 0x00000000
T14D4 072:243.999 JLINK_WriteReg(R0, 0x0002D000)
T14D4 072:244.072 - 0.087ms returns 0x00
T14D4 072:244.100 JLINK_WriteReg(R1, 0x00001000)
T14D4 072:244.124 - 0.035ms returns 0x00
T14D4 072:244.149 JLINK_WriteReg(R2, 0x000000FF)
T14D4 072:244.172 - 0.033ms returns 0x00
T14D4 072:244.196 JLINK_WriteReg(R3, 0x00000000)
T14D4 072:244.218 - 0.032ms returns 0x00
T14D4 072:244.242 JLINK_WriteReg(R4, 0x00000000)
T14D4 072:244.264 - 0.032ms returns 0x00
T14D4 072:244.288 JLINK_WriteReg(R5, 0x00000000)
T14D4 072:244.310 - 0.032ms returns 0x00
T14D4 072:244.334 JLINK_WriteReg(R6, 0x00000000)
T14D4 072:244.357 - 0.032ms returns 0x00
T14D4 072:244.381 JLINK_WriteReg(R7, 0x00000000)
